  vcan0  7E8   [4]  03 41 05 7F
  vcan0  7E8   [5]  04 41 0C 0E FE
  vcan0  7E8   [4]  03 41 0D 00
  vcan0  7E8   [4]  03 41 0F 54
  vcan0  7E8   [4]  03 41 05 7F
  vcan0  7E8   [5]  04 41 0C 0F 65
  vcan0  7E8   [4]  03 41 0D 00
  vcan0  7E8   [4]  03 41 0F 54
  vcan0  7E8   [4]  03 41 05 7F
  vcan0  7E8   [5]  04 41 0C 13 24
  vcan0  7E8   [4]  03 41 0D 02
  vcan0  7E8   [4]  03 41 0F 54
  vcan0  7E8   [4]  03 41 05 7F
  vcan0  7E8   [5]  04 41 0C 17 09
  vcan0  7E8   [4]  03 41 0D 08
  vcan0  7E8   [4]  03 41 0F 54
  vcan0  7E8   [4]  03 41 05 7F
  vcan0  7E8   [5]  04 41 0C 1E 7E
  vcan0  7E8   [4]  03 41 0D 0C
  vcan0  7E8   [4]  03 41 0F 54
  vcan0  7E8   [4]  03 41 05 7F
  vcan0  7E8   [5]  04 41 0C 28 1D
  vcan0  7E8   [4]  03 41 0D 0F
  vcan0  7E8   [4]  03 41 0F 54
  vcan0  7E8   [4]  03 41 05 7F
  vcan0  7E8   [5]  04 41 0C 20 E8
  vcan0  7E8   [4]  03 41 0D 10
  vcan0  7E8   [4]  03 41 0F 53
  vcan0  7E8   [4]  03 41 05 7F
  vcan0  7E8   [5]  04 41 0C 1A D0
  vcan0  7E8   [4]  03 41 0D 13
  vcan0  7E8   [4]  03 41 0F 54
  vcan0  7E8   [4]  03 41 05 7F
  vcan0  7E8   [5]  04 41 0C 21 A6
  vcan0  7E8   [4]  03 41 0D 18
  vcan0  7E8   [4]  03 41 0F 53
  vcan0  7E8   [4]  03 41 05 7F
  vcan0  7E8   [5]  04 41 0C 24 9A
  vcan0  7E8   [4]  03 41 0D 19
  vcan0  7E8   [4]  03 41 0F 52
  vcan0  7E8   [4]  03 41 05 80
  vcan0  7E8   [5]  04 41 0C 1D 66
  vcan0  7E8   [4]  03 41 0D 19
  vcan0  7E8   [4]  03 41 0F 52
  vcan0  7E8   [4]  03 41 05 80
  vcan0  7E8   [5]  04 41 0C 15 FB
  vcan0  7E8   [4]  03 41 0D 18
  vcan0  7E8   [4]  03 41 0F 52
  vcan0  7E8   [4]  03 41 05 80
  vcan0  7E8   [5]  04 41 0C 15 EE
  vcan0  7E8   [4]  03 41 0D 18
  vcan0  7E8   [4]  03 41 0F 53
  vcan0  7E8   [4]  03 41 05 80
  vcan0  7E8   [5]  04 41 0C 16 14
  vcan0  7E8   [4]  03 41 0D 19
  vcan0  7E8   [4]  03 41 0F 53
  vcan0  7E8   [4]  03 41 05 80
  vcan0  7E8   [5]  04 41 0C 16 D9
  vcan0  7E8   [4]  03 41 0D 19
  vcan0  7E8   [4]  03 41 0F 53
  vcan0  7E8   [4]  03 41 05 80
  vcan0  7E8   [5]  04 41 0C 17 4C
  vcan0  7E8   [4]  03 41 0D 1A
  vcan0  7E8   [4]  03 41 0F 53
  vcan0  7E8   [4]  03 41 05 80
  vcan0  7E8   [5]  04 41 0C 19 83
  vcan0  7E8   [4]  03 41 0D 1D
  vcan0  7E8   [4]  03 41 0F 53
  vcan0  7E8   [4]  03 41 05 80
  vcan0  7E8   [5]  04 41 0C 1B B2
  vcan0  7E8   [4]  03 41 0D 1F
  vcan0  7E8   [4]  03 41 0F 53
  vcan0  7E8   [4]  03 41 05 80
  vcan0  7E8   [5]  04 41 0C 1C 3D
  vcan0  7E8   [4]  03 41 0D 1F
  vcan0  7E8   [4]  03 41 0F 53
  vcan0  7E8   [4]  03 41 05 80
  vcan0  7E8   [5]  04 41 0C 1B 9B
  vcan0  7E8   [4]  03 41 0D 1E
  vcan0  7E8   [4]  03 41 0F 52
  vcan0  7E8   [4]  03 41 05 80
  vcan0  7E8   [5]  04 41 0C 1A 6D
  vcan0  7E8   [4]  03 41 0D 1D
  vcan0  7E8   [4]  03 41 0F 52
  vcan0  7E8   [4]  03 41 05 80
  vcan0  7E8   [5]  04 41 0C 19 75
  vcan0  7E8   [4]  03 41 0D 1C
  vcan0  7E8   [4]  03 41 0F 53
  vcan0  7E8   [4]  03 41 05 80
  vcan0  7E8   [5]  04 41 0C 19 F7
  vcan0  7E8   [4]  03 41 0D 1D
  vcan0  7E8   [4]  03 41 0F 54
  vcan0  7E8   [4]  03 41 05 80
  vcan0  7E8   [5]  04 41 0C 1C EB
  vcan0  7E8   [4]  03 41 0D 21
  vcan0  7E8   [4]  03 41 0F 53
  vcan0  7E8   [4]  03 41 05 81
  vcan0  7E8   [5]  04 41 0C 1F DC
  vcan0  7E8   [4]  03 41 0D 24
  vcan0  7E8   [4]  03 41 0F 53
  vcan0  7E8   [4]  03 41 05 81
  vcan0  7E8   [5]  04 41 0C 22 41
  vcan0  7E8   [4]  03 41 0D 26
  vcan0  7E8   [4]  03 41 0F 52
  vcan0  7E8   [4]  03 41 05 81
  vcan0  7E8   [5]  04 41 0C 23 8A
  vcan0  7E8   [4]  03 41 0D 28
  vcan0  7E8   [4]  03 41 0F 52
  vcan0  7E8   [4]  03 41 05 81
  vcan0  7E8   [5]  04 41 0C 1C 30
  vcan0  7E8   [4]  03 41 0D 28
  vcan0  7E8   [4]  03 41 0F 52
  vcan0  7E8   [4]  03 41 05 81
  vcan0  7E8   [5]  04 41 0C 1A D3
  vcan0  7E8   [4]  03 41 0D 28
  vcan0  7E8   [4]  03 41 0F 53
  vcan0  7E8   [4]  03 41 05 81
  vcan0  7E8   [5]  04 41 0C 1B 09
  vcan0  7E8   [4]  03 41 0D 28
  vcan0  7E8   [4]  03 41 0F 52
  vcan0  7E8   [4]  03 41 05 81
  vcan0  7E8   [5]  04 41 0C 1A 56
  vcan0  7E8   [4]  03 41 0D 27
  vcan0  7E8   [4]  03 41 0F 52
  vcan0  7E8   [4]  03 41 05 81
  vcan0  7E8   [5]  04 41 0C 19 7E
  vcan0  7E8   [4]  03 41 0D 26
  vcan0  7E8   [4]  03 41 0F 52
  vcan0  7E8   [4]  03 41 05 81
  vcan0  7E8   [5]  04 41 0C 19 6A
  vcan0  7E8   [4]  03 41 0D 26
  vcan0  7E8   [4]  03 41 0F 53
  vcan0  7E8   [4]  03 41 05 81
  vcan0  7E8   [5]  04 41 0C 19 44
  vcan0  7E8   [4]  03 41 0D 26
  vcan0  7E8   [4]  03 41 0F 53
  vcan0  7E8   [4]  03 41 05 81
  vcan0  7E8   [5]  04 41 0C 19 BB
  vcan0  7E8   [4]  03 41 0D 27
  vcan0  7E8   [4]  03 41 0F 53
  vcan0  7E8   [4]  03 41 05 81
  vcan0  7E8   [5]  04 41 0C 19 D5
  vcan0  7E8   [4]  03 41 0D 27
  vcan0  7E8   [4]  03 41 0F 53
  vcan0  7E8   [4]  03 41 05 81
  vcan0  7E8   [5]  04 41 0C 18 DD
  vcan0  7E8   [4]  03 41 0D 26
  vcan0  7E8   [4]  03 41 0F 53
  vcan0  7E8   [4]  03 41 05 81
  vcan0  7E8   [5]  04 41 0C 19 62
  vcan0  7E8   [4]  03 41 0D 26
  vcan0  7E8   [4]  03 41 0F 53
  vcan0  7E8   [4]  03 41 05 81
  vcan0  7E8   [5]  04 41 0C 19 7B
  vcan0  7E8   [4]  03 41 0D 26
  vcan0  7E8   [4]  03 41 0F 53
  vcan0  7E8   [4]  03 41 05 80
  vcan0  7E8   [5]  04 41 0C 19 4E
  vcan0  7E8   [4]  03 41 0D 25
  vcan0  7E8   [4]  03 41 0F 53
  vcan0  7E8   [4]  03 41 05 80
  vcan0  7E8   [5]  04 41 0C 17 9F
  vcan0  7E8   [4]  03 41 0D 23
  vcan0  7E8   [4]  03 41 0F 53
  vcan0  7E8   [4]  03 41 05 80
  vcan0  7E8   [5]  04 41 0C 16 F3
  vcan0  7E8   [4]  03 41 0D 23
  vcan0  7E8   [4]  03 41 0F 53
  vcan0  7E8   [4]  03 41 05 80
  vcan0  7E8   [5]  04 41 0C 16 73
  vcan0  7E8   [4]  03 41 0D 22
  vcan0  7E8   [4]  03 41 0F 53
  vcan0  7E8   [4]  03 41 05 80
  vcan0  7E8   [5]  04 41 0C 15 80
  vcan0  7E8   [4]  03 41 0D 20
  vcan0  7E8   [4]  03 41 0F 53
  vcan0  7E8   [4]  03 41 05 80
  vcan0  7E8   [5]  04 41 0C 14 38
  vcan0  7E8   [4]  03 41 0D 1E
  vcan0  7E8   [4]  03 41 0F 53
  vcan0  7E8   [4]  03 41 05 80
  vcan0  7E8   [5]  04 41 0C 12 A6
  vcan0  7E8   [4]  03 41 0D 1B
  vcan0  7E8   [4]  03 41 0F 54
  vcan0  7E8   [4]  03 41 05 80
  vcan0  7E8   [5]  04 41 0C 10 21
  vcan0  7E8   [4]  03 41 0D 17
  vcan0  7E8   [4]  03 41 0F 54
  vcan0  7E8   [4]  03 41 05 80
  vcan0  7E8   [5]  04 41 0C 0E C7
  vcan0  7E8   [4]  03 41 0D 13
  vcan0  7E8   [4]  03 41 0F 54
  vcan0  7E8   [4]  03 41 05 80
  vcan0  7E8   [5]  04 41 0C 0E 57
  vcan0  7E8   [4]  03 41 0D 0D
  vcan0  7E8   [4]  03 41 0F 54
  vcan0  7E8   [4]  03 41 05 80
  vcan0  7E8   [5]  04 41 0C 0E 4B
  vcan0  7E8   [4]  03 41 0D 0A
  vcan0  7E8   [4]  03 41 0F 54
  vcan0  7E8   [4]  03 41 05 7F
  vcan0  7E8   [5]  04 41 0C 0E 8F
  vcan0  7E8   [4]  03 41 0D 06
  vcan0  7E8   [4]  03 41 0F 54
  vcan0  7E8   [4]  03 41 05 7F
  vcan0  7E8   [5]  04 41 0C 0F C5
  vcan0  7E8   [4]  03 41 0D 03
  vcan0  7E8   [4]  03 41 0F 54
  vcan0  7E8   [4]  03 41 05 7F
  vcan0  7E8   [5]  04 41 0C 0E 64
  vcan0  7E8   [4]  03 41 0D 00
  vcan0  7E8   [4]  03 41 0F 54
  vcan0  7E8   [4]  03 41 05 7F
  vcan0  7E8   [5]  04 41 0C 0E 43
  vcan0  7E8   [4]  03 41 0D 00
  vcan0  7E8   [4]  03 41 0F 55
  vcan0  7E8   [4]  03 41 05 7F
  vcan0  7E8   [5]  04 41 0C 0E 48
  vcan0  7E8   [4]  03 41 0D 00
  vcan0  7E8   [4]  03 41 0F 55
  vcan0  7E8   [4]  03 41 05 7F
  vcan0  7E8   [5]  04 41 0C 0E 40
  vcan0  7E8   [4]  03 41 0D 00
  vcan0  7E8   [4]  03 41 0F 55
  vcan0  7E8   [4]  03 41 05 7F
  vcan0  7E8   [5]  04 41 0C 0E 6C
  vcan0  7E8   [4]  03 41 0D 00
  vcan0  7E8   [4]  03 41 0F 55
  vcan0  7E8   [4]  03 41 05 7F
  vcan0  7E8   [5]  04 41 0C 0E 71
  vcan0  7E8   [4]  03 41 0D 00
  vcan0  7E8   [4]  03 41 0F 55
  vcan0  7E8   [4]  03 41 05 7F
  vcan0  7E8   [5]  04 41 0C 0E 62
  vcan0  7E8   [4]  03 41 0D 00
  vcan0  7E8   [4]  03 41 0F 55
  vcan0  7E8   [4]  03 41 05 7F
  vcan0  7E8   [5]  04 41 0C 0E 88
  vcan0  7E8   [4]  03 41 0D 00
  vcan0  7E8   [4]  03 41 0F 55
  vcan0  7E8   [4]  03 41 05 7F
  vcan0  7E8   [5]  04 41 0C 0E 5B
  vcan0  7E8   [4]  03 41 0D 00
  vcan0  7E8   [4]  03 41 0F 55
  vcan0  7E8   [4]  03 41 05 7F
  vcan0  7E8   [5]  04 41 0C 0E 60
  vcan0  7E8   [4]  03 41 0D 00
  vcan0  7E8   [4]  03 41 0F 55
  vcan0  7E8   [4]  03 41 05 7F
  vcan0  7E8   [5]  04 41 0C 0E 6E
  vcan0  7E8   [4]  03 41 0D 00
  vcan0  7E8   [4]  03 41 0F 55
  vcan0  7E8   [4]  03 41 05 7F
  vcan0  7E8   [5]  04 41 0C 0E 2B
  vcan0  7E8   [4]  03 41 0D 00
  vcan0  7E8   [4]  03 41 0F 55
  vcan0  7E8   [4]  03 41 05 7F
  vcan0  7E8   [5]  04 41 0C 0E 8F
  vcan0  7E8   [4]  03 41 0D 00
  vcan0  7E8   [4]  03 41 0F 55
  vcan0  7E8   [4]  03 41 05 7F
  vcan0  7E8   [5]  04 41 0C 0E 61
  vcan0  7E8   [4]  03 41 0D 00
  vcan0  7E8   [4]  03 41 0F 55
  vcan0  7E8   [4]  03 41 05 7F
  vcan0  7E8   [5]  04 41 0C 0E 65
  vcan0  7E8   [4]  03 41 0D 00
  vcan0  7E8   [4]  03 41 0F 55
  vcan0  7E8   [4]  03 41 05 7F
  vcan0  7E8   [5]  04 41 0C 0F 5C
  vcan0  7E8   [4]  03 41 0D 00
  vcan0  7E8   [4]  03 41 0F 55
  vcan0  7E8   [4]  03 41 05 7F
  vcan0  7E8   [5]  04 41 0C 1A 03
  vcan0  7E8   [4]  03 41 0D 01
  vcan0  7E8   [4]  03 41 0F 55
  vcan0  7E8   [4]  03 41 05 7F
  vcan0  7E8   [5]  04 41 0C 1C 7A
  vcan0  7E8   [4]  03 41 0D 09
  vcan0  7E8   [4]  03 41 0F 54
  vcan0  7E8   [4]  03 41 05 7F
  vcan0  7E8   [5]  04 41 0C 25 8F
  vcan0  7E8   [4]  03 41 0D 0E
  vcan0  7E8   [4]  03 41 0F 54
  vcan0  7E8   [4]  03 41 05 7F
  vcan0  7E8   [5]  04 41 0C 24 F3
  vcan0  7E8   [4]  03 41 0D 10
  vcan0  7E8   [4]  03 41 0F 53
  vcan0  7E8   [4]  03 41 05 7F
  vcan0  7E8   [5]  04 41 0C 1B 97
  vcan0  7E8   [4]  03 41 0D 14
  vcan0  7E8   [4]  03 41 0F 54
  vcan0  7E8   [4]  03 41 05 7F
  vcan0  7E8   [5]  04 41 0C 21 14
  vcan0  7E8   [4]  03 41 0D 18
  vcan0  7E8   [4]  03 41 0F 53
  vcan0  7E8   [4]  03 41 05 7F
  vcan0  7E8   [5]  04 41 0C 25 C9
  vcan0  7E8   [4]  03 41 0D 1B
  vcan0  7E8   [4]  03 41 0F 53
  vcan0  7E8   [4]  03 41 05 80
  vcan0  7E8   [5]  04 41 0C 25 B7
  vcan0  7E8   [4]  03 41 0D 1C
  vcan0  7E8   [4]  03 41 0F 52
  vcan0  7E8   [4]  03 41 05 80
  vcan0  7E8   [5]  04 41 0C 19 A7
  vcan0  7E8   [4]  03 41 0D 1D
  vcan0  7E8   [4]  03 41 0F 53
  vcan0  7E8   [4]  03 41 05 80
  vcan0  7E8   [5]  04 41 0C 1D 61
  vcan0  7E8   [4]  03 41 0D 21
  vcan0  7E8   [4]  03 41 0F 53
  vcan0  7E8   [4]  03 41 05 80
  vcan0  7E8   [5]  04 41 0C 1F EE
  vcan0  7E8   [4]  03 41 0D 24
  vcan0  7E8   [4]  03 41 0F 52
  vcan0  7E8   [4]  03 41 05 80
  vcan0  7E8   [5]  04 41 0C 21 F6
  vcan0  7E8   [4]  03 41 0D 26
  vcan0  7E8   [4]  03 41 0F 52
  vcan0  7E8   [4]  03 41 05 80
  vcan0  7E8   [5]  04 41 0C 1C B8
  vcan0  7E8   [4]  03 41 0D 26
  vcan0  7E8   [4]  03 41 0F 52
  vcan0  7E8   [4]  03 41 05 80
  vcan0  7E8   [5]  04 41 0C 1A 07
  vcan0  7E8   [4]  03 41 0D 27
  vcan0  7E8   [4]  03 41 0F 52
  vcan0  7E8   [4]  03 41 05 81
  vcan0  7E8   [5]  04 41 0C 1A E5
  vcan0  7E8   [4]  03 41 0D 29
  vcan0  7E8   [4]  03 41 0F 52
  vcan0  7E8   [4]  03 41 05 81
  vcan0  7E8   [5]  04 41 0C 1B 65
  vcan0  7E8   [4]  03 41 0D 29
  vcan0  7E8   [4]  03 41 0F 52
  vcan0  7E8   [4]  03 41 05 81
  vcan0  7E8   [5]  04 41 0C 1B 46
  vcan0  7E8   [4]  03 41 0D 29
  vcan0  7E8   [4]  03 41 0F 52
  vcan0  7E8   [4]  03 41 05 81
  vcan0  7E8   [5]  04 41 0C 1A F4
  vcan0  7E8   [4]  03 41 0D 28
  vcan0  7E8   [4]  03 41 0F 52
  vcan0  7E8   [4]  03 41 05 81
  vcan0  7E8   [5]  04 41 0C 1A E1
  vcan0  7E8   [4]  03 41 0D 29
  vcan0  7E8   [4]  03 41 0F 53
  vcan0  7E8   [4]  03 41 05 81
  vcan0  7E8   [5]  04 41 0C 1B 18
  vcan0  7E8   [4]  03 41 0D 29
  vcan0  7E8   [4]  03 41 0F 52
  vcan0  7E8   [4]  03 41 05 81
  vcan0  7E8   [5]  04 41 0C 1B B1
  vcan0  7E8   [4]  03 41 0D 2A
  vcan0  7E8   [4]  03 41 0F 53
  vcan0  7E8   [4]  03 41 05 81
  vcan0  7E8   [5]  04 41 0C 1C 9F
  vcan0  7E8   [4]  03 41 0D 2B
  vcan0  7E8   [4]  03 41 0F 53
  vcan0  7E8   [4]  03 41 05 81
  vcan0  7E8   [5]  04 41 0C 1C E2
  vcan0  7E8   [4]  03 41 0D 2B
  vcan0  7E8   [4]  03 41 0F 52
  vcan0  7E8   [4]  03 41 05 81
  vcan0  7E8   [5]  04 41 0C 1C F3
  vcan0  7E8   [4]  03 41 0D 2B
  vcan0  7E8   [5]  04 41 0C 1B C0
  vcan0  7E8   [4]  03 41 05 81
  vcan0  7E8   [5]  04 41 0C 1B 52
  vcan0  7E8   [4]  03 41 0F 53
  vcan0  7E8   [5]  04 41 0C 1A 7B
  vcan0  7E8   [4]  03 41 0D 27
  vcan0  7E8   [4]  03 41 05 81
  vcan0  7E8   [4]  03 41 0D 24
  vcan0  7E8   [4]  03 41 0F 54
  vcan0  7E8   [5]  04 41 0C 15 07
  vcan0  7E8   [4]  03 41 0F 54
  vcan0  7E8   [5]  04 41 0C 11 95
  vcan0  7E8   [4]  03 41 0F 54
  vcan0  7E8   [5]  04 41 0C 0F 9E
  vcan0  7E8   [4]  03 41 0D 18
  vcan0  7E8   [4]  03 41 05 80
  vcan0  7E8   [5]  04 41 0C 0E 97
  vcan0  7E8   [4]  03 41 0F 55
  vcan0  7E8   [5]  04 41 0C 0E 40
  vcan0  7E8   [4]  03 41 0D 11
  vcan0  7E8   [4]  03 41 05 7F
  vcan0  7E8   [4]  03 41 0D 0C
  vcan0  7E8   [4]  03 41 05 7F
  vcan0  7E8   [5]  04 41 0C 0E 5F
  vcan0  7E8   [4]  03 41 0F 55
  vcan0  7E8   [5]  04 41 0C 0E 86
  vcan0  7E8   [4]  03 41 0D 02
  vcan0  7E8   [4]  03 41 0F 55
  vcan0  7E8   [4]  03 41 05 7F
  vcan0  7E8   [4]  03 41 0D 00
  vcan0  7E8   [4]  03 41 05 7F
  vcan0  7E8   [4]  03 41 0D 00
  vcan0  7E8   [4]  03 41 05 7F
  vcan0  7E8   [4]  03 41 0D 00
  vcan0  7E8   [4]  03 41 05 7F
  vcan0  7E8   [5]  04 41 0C 0E 5B
  vcan0  7E8   [4]  03 41 0F 55
  vcan0  7E8   [5]  04 41 0C 0E 62
  vcan0  7E8   [4]  03 41 0D 00
  vcan0  7E8   [4]  03 41 05 7F
  vcan0  7E8   [4]  03 41 0D 00
  vcan0  7E8   [4]  03 41 05 7F
  vcan0  7E8   [5]  04 41 0C 0E 60
  vcan0  7E8   [4]  03 41 0F 55
  vcan0  7E8   [5]  04 41 0C 0E 83
  vcan0  7E8   [4]  03 41 0D 00
  vcan0  7E8   [4]  03 41 05 7F
  vcan0  7E8   [4]  03 41 0D 00
  vcan0  7E8   [4]  03 41 05 7F
  vcan0  7E8   [5]  04 41 0C 0E 57
  vcan0  7E8   [4]  03 41 0D 00
  vcan0  7E8   [4]  03 41 05 7F
  vcan0  7E8   [4]  03 41 0D 00
  vcan0  7E8   [4]  03 41 0F 55
  vcan0  7E8   [4]  03 41 05 7F
  vcan0  7E8   [5]  04 41 0C 0F 5E
  vcan0  7E8   [4]  03 41 0D 00
  vcan0  7E8   [4]  03 41 0F 55
  vcan0  7E8   [4]  03 41 05 7F
  vcan0  7E8   [5]  04 41 0C 15 EC
  vcan0  7E8   [4]  03 41 0D 01
  vcan0  7E8   [4]  03 41 05 7F
  vcan0  7E8   [5]  04 41 0C 0F 55
  vcan0  7E8   [4]  03 41 0F 55
  vcan0  7E8   [5]  04 41 0C 18 47
  vcan0  7E8   [4]  03 41 0F 55
  vcan0  7E8   [4]  03 41 05 7F
  vcan0  7E8   [4]  03 41 0D 09
  vcan0  7E8   [4]  03 41 05 7F
  vcan0  7E8   [5]  04 41 0C 24 38
  vcan0  7E8   [4]  03 41 0F 54
  vcan0  7E8   [5]  04 41 0C 26 BF
  vcan0  7E8   [4]  03 41 0D 10
  vcan0  7E8   [4]  03 41 0F 53
  vcan0  7E8   [5]  04 41 0C 19 B3
  vcan0  7E8   [4]  03 41 0F 54
  vcan0  7E8   [4]  03 41 05 7F
  vcan0  7E8   [4]  03 41 0D 16
  vcan0  7E8   [4]  03 41 05 7F
  vcan0  7E8   [4]  03 41 0D 1B
  vcan0  7E8   [4]  03 41 05 80
  vcan0  7E8   [4]  03 41 0D 1D
  vcan0  7E8   [4]  03 41 0F 53
  vcan0  7E8   [5]  04 41 0C 29 CE
  vcan0  7E8   [4]  03 41 0D 1F
  vcan0  7E8   [4]  03 41 05 80
  vcan0  7E8   [5]  04 41 0C 1D AF
  vcan0  7E8   [4]  03 41 0F 54
  vcan0  7E8   [5]  04 41 0C 20 75
  vcan0  7E8   [4]  03 41 0D 25
  vcan0  7E8   [4]  03 41 05 80
  vcan0  7E8   [4]  03 41 0D 27
  vcan0  7E8   [4]  03 41 05 80
  vcan0  7E8   [5]  04 41 0C 22 E2
  vcan0  7E8   [4]  03 41 0F 52
  vcan0  7E8   [5]  04 41 0C 1B D2
  vcan0  7E8   [4]  03 41 0D 2A
  vcan0  7E8   [4]  03 41 05 81
  vcan0  7E8   [4]  03 41 0D 2B
  vcan0  7E8   [4]  03 41 0F 53
  vcan0  7E8   [5]  04 41 0C 1D 7A
  vcan0  7E8   [4]  03 41 0F 53
  vcan0  7E8   [5]  04 41 0C 1D A2
  vcan0  7E8   [4]  03 41 0F 53
  vcan0  7E8   [4]  03 41 05 81
  vcan0  7E8   [4]  03 41 0D 2C
  vcan0  7E8   [4]  03 41 0F 53
  vcan0  7E8   [5]  04 41 0C 1D 50
  vcan0  7E8   [4]  03 41 0F 53
  vcan0  7E8   [5]  04 41 0C 1D 61
  vcan0  7E8   [4]  03 41 0D 2C
  vcan0  7E8   [4]  03 41 05 81
  vcan0  7E8   [4]  03 41 0D 2B
  vcan0  7E8   [4]  03 41 05 81
  vcan0  7E8   [5]  04 41 0C 1C BF
  vcan0  7E8   [4]  03 41 0D 2C
  vcan0  7E8   [4]  03 41 0F 54
  vcan0  7E8   [5]  04 41 0C 1D 8A
  vcan0  7E8   [4]  03 41 0F 54
  vcan0  7E8   [4]  03 41 05 81
  vcan0  7E8   [4]  03 41 0D 2E
  vcan0  7E8   [4]  03 41 05 81
  vcan0  7E8   [4]  03 41 0D 2E
  vcan0  7E8   [4]  03 41 0F 53
  vcan0  7E8   [5]  04 41 0C 1E 89
  vcan0  7E8   [4]  03 41 0D 2D
  vcan0  7E8   [4]  03 41 05 81
  vcan0  7E8   [5]  04 41 0C 1D BF
  vcan0  7E8   [4]  03 41 0F 53
  vcan0  7E8   [5]  04 41 0C 1D 5F
  vcan0  7E8   [4]  03 41 0D 2C
  vcan0  7E8   [4]  03 41 05 81
  vcan0  7E8   [4]  03 41 0D 2B
  vcan0  7E8   [4]  03 41 0F 54
  vcan0  7E8   [4]  03 41 05 81
  vcan0  7E8   [4]  03 41 0D 2B
  vcan0  7E8   [4]  03 41 0F 54
  vcan0  7E8   [4]  03 41 0D 2B
  vcan0  7E8   [4]  03 41 05 80
  vcan0  7E8   [4]  03 41 0D 2A
  vcan0  7E8   [4]  03 41 0F 54
  vcan0  7E8   [5]  04 41 0C 1B 8C
  vcan0  7E8   [4]  03 41 0F 54
  vcan0  7E8   [4]  03 41 05 80
  vcan0  7E8   [4]  03 41 0D 28
  vcan0  7E8   [4]  03 41 0F 54
  vcan0  7E8   [5]  04 41 0C 18 8D
  vcan0  7E8   [4]  03 41 0F 54
  vcan0  7E8   [5]  04 41 0C 14 9F
  vcan0  7E8   [4]  03 41 0D 1E
  vcan0  7E8   [4]  03 41 05 80
  vcan0  7E8   [4]  03 41 0D 1E
  vcan0  7E8   [4]  03 41 05 80
  vcan0  7E8   [5]  04 41 0C 1A E2
  vcan0  7E8   [4]  03 41 0F 55
  vcan0  7E8   [5]  04 41 0C 1C 19
  vcan0  7E8   [4]  03 41 0F 55
  vcan0  7E8   [5]  04 41 0C 1E 8D
  vcan0  7E8   [4]  03 41 0D 22
  vcan0  7E8   [4]  03 41 05 80
  vcan0  7E8   [4]  03 41 0D 24
  vcan0  7E8   [4]  03 41 05 80
  vcan0  7E8   [5]  04 41 0C 21 C3
  vcan0  7E8   [4]  03 41 0F 54
  vcan0  7E8   [5]  04 41 0C 22 FB
  vcan0  7E8   [4]  03 41 0F 53
  vcan0  7E8   [4]  03 41 05 80
  vcan0  7E8   [4]  03 41 0D 27
  vcan0  7E8   [4]  03 41 05 80
  vcan0  7E8   [4]  03 41 0D 26
  vcan0  7E8   [4]  03 41 05 80
  vcan0  7E8   [5]  04 41 0C 19 4A
  vcan0  7E8   [4]  03 41 0F 54
  vcan0  7E8   [4]  03 41 05 80
  vcan0  7E8   [4]  03 41 0D 27
  vcan0  7E8   [4]  03 41 05 80
  vcan0  7E8   [4]  03 41 0D 27
  vcan0  7E8   [4]  03 41 0F 53
  vcan0  7E8   [5]  04 41 0C 19 71
  vcan0  7E8   [4]  03 41 0F 53
  vcan0  7E8   [5]  04 41 0C 18 9F
  vcan0  7E8   [4]  03 41 0D 25
  vcan0  7E8   [4]  03 41 05 80
  vcan0  7E8   [4]  03 41 0D 25
  vcan0  7E8   [4]  03 41 05 80
  vcan0  7E8   [4]  03 41 0D 25
  vcan0  7E8   [4]  03 41 05 80
  vcan0  7E8   [5]  04 41 0C 19 23
  vcan0  7E8   [4]  03 41 0F 54
  vcan0  7E8   [5]  04 41 0C 18 C6
  vcan0  7E8   [4]  03 41 0F 54
  vcan0  7E8   [5]  04 41 0C 18 07
  vcan0  7E8   [4]  03 41 0D 24
  vcan0  7E8   [4]  03 41 0F 54
  vcan0  7E8   [5]  04 41 0C 17 55
  vcan0  7E8   [4]  03 41 0D 23
  vcan0  7E8   [4]  03 41 05 80
  vcan0  7E8   [4]  03 41 0D 22
  vcan0  7E8   [4]  03 41 05 80
  vcan0  7E8   [4]  03 41 0D 21
  vcan0  7E8   [4]  03 41 0F 55
  vcan0  7E8   [5]  04 41 0C 15 81
  vcan0  7E8   [4]  03 41 0F 55
  vcan0  7E8   [4]  03 41 05 80
  vcan0  7E8   [5]  04 41 0C 14 D7
  vcan0  7E8   [4]  03 41 0F 56
  vcan0  7E8   [5]  04 41 0C 15 64
  vcan0  7E8   [4]  03 41 0F 55
  vcan0  7E8   [4]  03 41 05 80
  vcan0  7E8   [4]  03 41 0D 20
  vcan0  7E8   [4]  03 41 05 80
  vcan0  7E8   [4]  03 41 0D 20
  vcan0  7E8   [4]  03 41 0F 55
  vcan0  7E8   [5]  04 41 0C 15 9A
  vcan0  7E8   [4]  03 41 0F 55
  vcan0  7E8   [5]  04 41 0C 14 E9
  vcan0  7E8   [4]  03 41 0D 1F
  vcan0  7E8   [4]  03 41 05 80
  vcan0  7E8   [4]  03 41 0D 1F
  vcan0  7E8   [4]  03 41 05 80
  vcan0  7E8   [5]  04 41 0C 14 4D
  vcan0  7E8   [4]  03 41 0F 55
  vcan0  7E8   [5]  04 41 0C 13 9A
  vcan0  7E8   [4]  03 41 0D 1D
  vcan0  7E8   [4]  03 41 05 80
  vcan0  7E8   [4]  03 41 0D 1B
  vcan0  7E8   [4]  03 41 05 80
  vcan0  7E8   [5]  04 41 0C 0F EF
  vcan0  7E8   [4]  03 41 0F 56
  vcan0  7E8   [4]  03 41 05 7F
  vcan0  7E8   [4]  03 41 0D 13
  vcan0  7E8   [4]  03 41 0F 56
  vcan0  7E8   [5]  04 41 0C 0E 28
  vcan0  7E8   [4]  03 41 0F 56
  vcan0  7E8   [4]  03 41 05 7F
  vcan0  7E8   [4]  03 41 0D 11
  vcan0  7E8   [4]  03 41 0F 55
  vcan0  7E8   [5]  04 41 0C 0E 1E
  vcan0  7E8   [4]  03 41 0F 55
  vcan0  7E8   [5]  04 41 0C 0E 65
  vcan0  7E8   [4]  03 41 0D 08
  vcan0  7E8   [4]  03 41 05 7F
  vcan0  7E8   [5]  04 41 0C 0E 51
  vcan0  7E8   [4]  03 41 0F 55
  vcan0  7E8   [5]  04 41 0C 0E 6F
  vcan0  7E8   [4]  03 41 0F 56
  vcan0  7E8   [4]  03 41 05 7F
  vcan0  7E8   [4]  03 41 0D 00
  vcan0  7E8   [4]  03 41 05 7F
  vcan0  7E8   [5]  04 41 0C 0E 29
  vcan0  7E8   [4]  03 41 05 7F
  vcan0  7E8   [4]  03 41 0D 05
  vcan0  7E8   [4]  03 41 05 7F
  vcan0  7E8   [5]  04 41 0C 18 EE
  vcan0  7E8   [4]  03 41 0D 0A
  vcan0  7E8   [4]  03 41 05 7F
  vcan0  7E8   [5]  04 41 0C 22 98
  vcan0  7E8   [4]  03 41 0F 55
  vcan0  7E8   [5]  04 41 0C 1F C3
  vcan0  7E8   [4]  03 41 0F 55
  vcan0  7E8   [4]  03 41 05 7F
  vcan0  7E8   [4]  03 41 0D 12
  vcan0  7E8   [4]  03 41 05 7F
  vcan0  7E8   [5]  04 41 0C 1F 69
  vcan0  7E8   [4]  03 41 0D 16
  vcan0  7E8   [4]  03 41 05 7F
  vcan0  7E8   [4]  03 41 0D 1A
  vcan0  7E8   [4]  03 41 0F 54
  vcan0  7E8   [5]  04 41 0C 1D 7B
  vcan0  7E8   [4]  03 41 0F 53
  vcan0  7E8   [4]  03 41 05 80
  vcan0  7E8   [4]  03 41 0D 1B
  vcan0  7E8   [4]  03 41 05 80
  vcan0  7E8   [5]  04 41 0C 18 23
  vcan0  7E8   [4]  03 41 0F 54
  vcan0  7E8   [5]  04 41 0C 17 1A
  vcan0  7E8   [4]  03 41 0D 19
  vcan0  7E8   [4]  03 41 05 80
  vcan0  7E8   [5]  04 41 0C 16 40
  vcan0  7E8   [4]  03 41 0F 54
  vcan0  7E8   [5]  04 41 0C 15 F9
  vcan0  7E8   [4]  03 41 0D 18
  vcan0  7E8   [4]  03 41 05 80
  vcan0  7E8   [4]  03 41 0D 19
  vcan0  7E8   [4]  03 41 0F 55
  vcan0  7E8   [5]  04 41 0C 16 FD
  vcan0  7E8   [4]  03 41 0F 55
  vcan0  7E8   [5]  04 41 0C 16 38
  vcan0  7E8   [4]  03 41 0D 19
  vcan0  7E8   [4]  03 41 05 80
  vcan0  7E8   [5]  04 41 0C 15 AF
  vcan0  7E8   [4]  03 41 0F 55
  vcan0  7E8   [4]  03 41 0F 56
  vcan0  7E8   [4]  03 41 05 80
  vcan0  7E8   [4]  03 41 0F 54
  vcan0  7E8   [5]  04 41 0C 1D E5
  vcan0  7E8   [4]  03 41 0F 55
  vcan0  7E8   [4]  03 41 05 80
  vcan0  7E8   [4]  03 41 0D 25
  vcan0  7E8   [4]  03 41 05 80
  vcan0  7E8   [5]  04 41 0C 24 C5
  vcan0  7E8   [4]  03 41 0F 54
  vcan0  7E8   [5]  04 41 0C 28 3F
  vcan0  7E8   [4]  03 41 0F 54
  vcan0  7E8   [4]  03 41 05 81
  vcan0  7E8   [4]  03 41 0D 2E
  vcan0  7E8   [4]  03 41 05 81
  vcan0  7E8   [4]  03 41 0D 2D
  vcan0  7E8   [4]  03 41 0F 54
  vcan0  7E8   [5]  04 41 0C 1C BC
  vcan0  7E8   [4]  03 41 05 82
  vcan0  7E8   [4]  03 41 0D 2A
  vcan0  7E8   [4]  03 41 05 82
  vcan0  7E8   [4]  03 41 0D 28
  vcan0  7E8   [4]  03 41 05 82
  vcan0  7E8   [5]  04 41 0C 19 F1
  vcan0  7E8   [4]  03 41 0F 55
  vcan0  7E8   [4]  03 41 05 82
  vcan0  7E8   [4]  03 41 0D 25
  vcan0  7E8   [4]  03 41 0F 55
  vcan0  7E8   [5]  04 41 0C 18 69
  vcan0  7E8   [4]  03 41 0D 24
  vcan0  7E8   [4]  03 41 05 82
  vcan0  7E8   [4]  03 41 0D 24
  vcan0  7E8   [4]  03 41 05 81
  vcan0  7E8   [5]  04 41 0C 17 FC
  vcan0  7E8   [4]  03 41 0F 56
  vcan0  7E8   [5]  04 41 0C 17 C4
  vcan0  7E8   [4]  03 41 0D 23
  vcan0  7E8   [4]  03 41 05 81
  vcan0  7E8   [4]  03 41 0D 23
  vcan0  7E8   [4]  03 41 0F 56
  vcan0  7E8   [5]  04 41 0C 14 CA
  vcan0  7E8   [4]  03 41 0F 56
  vcan0  7E8   [4]  03 41 05 80
  vcan0  7E8   [4]  03 41 0D 1B
  vcan0  7E8   [4]  03 41 05 80
  vcan0  7E8   [5]  04 41 0C 0F 3E
  vcan0  7E8   [4]  03 41 0F 57
  vcan0  7E8   [5]  04 41 0C 0E 4E
  vcan0  7E8   [4]  03 41 0D 0F
  vcan0  7E8   [4]  03 41 05 80
  vcan0  7E8   [5]  04 41 0C 0E 48
  vcan0  7E8   [4]  03 41 0F 57
  vcan0  7E8   [5]  04 41 0C 0E B3
  vcan0  7E8   [4]  03 41 0F 57
  vcan0  7E8   [5]  04 41 0C 0E 77
  vcan0  7E8   [4]  03 41 0D 02
  vcan0  7E8   [4]  03 41 0F 57
  vcan0  7E8   [5]  04 41 0C 0E 90
  vcan0  7E8   [4]  03 41 0F 57
  vcan0  7E8   [4]  03 41 05 7F
  vcan0  7E8   [4]  03 41 0D 00
  vcan0  7E8   [4]  03 41 05 7F
  vcan0  7E8   [4]  03 41 0D 00
  vcan0  7E8   [4]  03 41 0F 57
  vcan0  7E8   [5]  04 41 0C 0E 86
  vcan0  7E8   [4]  03 41 0D 00
  vcan0  7E8   [4]  03 41 0F 57
  vcan0  7E8   [4]  03 41 05 7F
  vcan0  7E8   [5]  04 41 0C 0E EE
  vcan0  7E8   [4]  03 41 0D 00
  vcan0  7E8   [4]  03 41 0F 57
  vcan0  7E8   [4]  03 41 05 7F
  vcan0  7E8   [5]  04 41 0C 0E 71
  vcan0  7E8   [4]  03 41 0D 00
  vcan0  7E8   [4]  03 41 0F 57
  vcan0  7E8   [4]  03 41 05 7F
  vcan0  7E8   [5]  04 41 0C 0E 94
  vcan0  7E8   [4]  03 41 0F 57
  vcan0  7E8   [5]  04 41 0C 0E 7A
  vcan0  7E8   [4]  03 41 0D 00
  vcan0  7E8   [4]  03 41 05 7F
  vcan0  7E8   [4]  03 41 0D 00
  vcan0  7E8   [4]  03 41 05 7F
  vcan0  7E8   [4]  03 41 05 7F
  vcan0  7E8   [4]  03 41 0D 00
  vcan0  7E8   [4]  03 41 05 7F
  vcan0  7E8   [5]  04 41 0C 0E 64
  vcan0  7E8   [4]  03 41 0F 56
  vcan0  7E8   [4]  03 41 05 7F
  vcan0  7E8   [4]  03 41 0D 00
  vcan0  7E8   [4]  03 41 05 7F
  vcan0  7E8   [4]  03 41 0F 56
  vcan0  7E8   [5]  04 41 0C 0E 67
  vcan0  7E8   [4]  03 41 0D 00
  vcan0  7E8   [4]  03 41 0F 57
  vcan0  7E8   [5]  04 41 0C 0E 8C
  vcan0  7E8   [4]  03 41 0F 57
  vcan0  7E8   [5]  04 41 0C 0E 5B
  vcan0  7E8   [5]  04 41 0C 0E 7F
  vcan0  7E8   [4]  03 41 05 7F
  vcan0  7E8   [4]  03 41 0D 00
  vcan0  7E8   [4]  03 41 0F 57
  vcan0  7E8   [4]  03 41 05 7F
  vcan0  7E8   [5]  04 41 0C 0E 3D
  vcan0  7E8   [4]  03 41 0F 57
  vcan0  7E8   [4]  03 41 05 7F
  vcan0  7E8   [4]  03 41 0D 00
  vcan0  7E8   [4]  03 41 0F 57
  vcan0  7E8   [5]  04 41 0C 0E 35
  vcan0  7E8   [4]  03 41 0F 57
  vcan0  7E8   [5]  04 41 0C 0E 2A
  vcan0  7E8   [4]  03 41 0D 00
  vcan0  7E8   [4]  03 41 05 7F
  vcan0  7E8   [4]  03 41 0D 00
  vcan0  7E8   [4]  03 41 0F 57
  vcan0  7E8   [4]  03 41 05 7F
  vcan0  7E8   [5]  04 41 0C 0F BE
  vcan0  7E8   [4]  03 41 0D 00
  vcan0  7E8   [4]  03 41 0F 57
  vcan0  7E8   [4]  03 41 05 7F
  vcan0  7E8   [5]  04 41 0C 10 B2
  vcan0  7E8   [4]  03 41 0D 05
  vcan0  7E8   [4]  03 41 0F 57
  vcan0  7E8   [5]  04 41 0C 1B E7
  vcan0  7E8   [4]  03 41 0F 57
  vcan0  7E8   [4]  03 41 05 7F
  vcan0  7E8   [4]  03 41 0D 0F
  vcan0  7E8   [4]  03 41 0F 56
  vcan0  7E8   [5]  04 41 0C 23 7F
  vcan0  7E8   [4]  03 41 0F 56
  vcan0  7E8   [5]  04 41 0C 1A 18
  vcan0  7E8   [4]  03 41 0D 13
  vcan0  7E8   [4]  03 41 05 80
  vcan0  7E8   [4]  03 41 0D 17
  vcan0  7E8   [4]  03 41 0F 56
  vcan0  7E8   [5]  04 41 0C 24 89
  vcan0  7E8   [4]  03 41 0F 56
  vcan0  7E8   [4]  03 41 05 80
  vcan0  7E8   [4]  03 41 0D 1A
  vcan0  7E8   [4]  03 41 05 80
  vcan0  7E8   [4]  03 41 0D 1B
  vcan0  7E8   [4]  03 41 0F 56
  vcan0  7E8   [5]  04 41 0C 18 D7
  vcan0  7E8   [4]  03 41 0D 1C
  vcan0  7E8   [4]  03 41 05 80
  vcan0  7E8   [5]  04 41 0C 19 FC
  vcan0  7E8   [4]  03 41 0F 56
  vcan0  7E8   [5]  04 41 0C 1B 4A
  vcan0  7E8   [4]  03 41 0D 1F
  vcan0  7E8   [4]  03 41 05 80
  vcan0  7E8   [4]  03 41 0D 1F
  vcan0  7E8   [4]  03 41 05 80
  vcan0  7E8   [5]  04 41 0C 1C 82
  vcan0  7E8   [4]  03 41 0F 56
  vcan0  7E8   [5]  04 41 0C 1C BC
  vcan0  7E8   [4]  03 41 0D 1F
  vcan0  7E8   [4]  03 41 05 80
  vcan0  7E8   [4]  03 41 0D 1C
  vcan0  7E8   [4]  03 41 0F 56
  vcan0  7E8   [5]  04 41 0C 14 82
  vcan0  7E8   [4]  03 41 0F 56
  vcan0  7E8   [4]  03 41 05 80
  vcan0  7E8   [4]  03 41 0D 0C
  vcan0  7E8   [4]  03 41 05 80
  vcan0  7E8   [4]  03 41 0D 07
  vcan0  7E8   [4]  03 41 0F 57
  vcan0  7E8   [4]  03 41 05 80
  vcan0  7E8   [4]  03 41 0D 01
  vcan0  7E8   [4]  03 41 0F 57
  vcan0  7E8   [5]  04 41 0C 0E 2D
  vcan0  7E8   [4]  03 41 0F 57
  vcan0  7E8   [4]  03 41 05 80
  vcan0  7E8   [4]  03 41 0D 00
  vcan0  7E8   [4]  03 41 05 80
  vcan0  7E8   [5]  04 41 0C 0E 69
  vcan0  7E8   [4]  03 41 0F 57
  vcan0  7E8   [5]  04 41 0C 0E 7E
  vcan0  7E8   [4]  03 41 0F 57
  vcan0  7E8   [4]  03 41 05 80
  vcan0  7E8   [4]  03 41 0D 00
  vcan0  7E8   [4]  03 41 05 80
  vcan0  7E8   [4]  03 41 0D 00
  vcan0  7E8   [4]  03 41 0F 57
  vcan0  7E8   [5]  04 41 0C 0E 60
  vcan0  7E8   [4]  03 41 0F 57
  vcan0  7E8   [4]  03 41 05 80
  vcan0  7E8   [4]  03 41 0D 00
  vcan0  7E8   [4]  03 41 05 80
  vcan0  7E8   [4]  03 41 0D 02
  vcan0  7E8   [4]  03 41 0F 57
  vcan0  7E8   [5]  04 41 0C 13 11
  vcan0  7E8   [4]  03 41 0F 57
  vcan0  7E8   [4]  03 41 05 80
  vcan0  7E8   [4]  03 41 0D 0B
  vcan0  7E8   [4]  03 41 05 80
  vcan0  7E8   [5]  04 41 0C 23 13
  vcan0  7E8   [4]  03 41 0F 56
  vcan0  7E8   [5]  04 41 0C 16 1A
  vcan0  7E8   [4]  03 41 0D 11
  vcan0  7E8   [4]  03 41 05 80
  vcan0  7E8   [4]  03 41 0D 17
  vcan0  7E8   [4]  03 41 0F 56
  vcan0  7E8   [5]  04 41 0C 26 AC
  vcan0  7E8   [4]  03 41 0F 56
  vcan0  7E8   [4]  03 41 05 80
  vcan0  7E8   [4]  03 41 0D 1C
  vcan0  7E8   [4]  03 41 0F 55
  vcan0  7E8   [4]  03 41 05 80
  vcan0  7E8   [5]  04 41 0C 1A 60
  vcan0  7E8   [4]  03 41 0D 1D
  vcan0  7E8   [4]  03 41 0F 56
  vcan0  7E8   [4]  03 41 05 80
  vcan0  7E8   [5]  04 41 0C 1C 7D
  vcan0  7E8   [4]  03 41 0D 20
  vcan0  7E8   [4]  03 41 0F 56
  vcan0  7E8   [4]  03 41 05 80
  vcan0  7E8   [5]  04 41 0C 1D 71
  vcan0  7E8   [4]  03 41 0D 21
  vcan0  7E8   [4]  03 41 0F 55
  vcan0  7E8   [4]  03 41 05 80
  vcan0  7E8   [5]  04 41 0C 1C 72
  vcan0  7E8   [4]  03 41 0F 55
  vcan0  7E8   [4]  03 41 05 80
  vcan0  7E8   [4]  03 41 0D 1E
  vcan0  7E8   [4]  03 41 0F 55
  vcan0  7E8   [5]  04 41 0C 16 B3
  vcan0  7E8   [4]  03 41 0D 1B
  vcan0  7E8   [4]  03 41 05 80
  vcan0  7E8   [4]  03 41 0D 17
  vcan0  7E8   [4]  03 41 05 80
  vcan0  7E8   [5]  04 41 0C 11 14
  vcan0  7E8   [4]  03 41 0F 56
  vcan0  7E8   [5]  04 41 0C 0F C3
  vcan0  7E8   [4]  03 41 0D 10
  vcan0  7E8   [4]  03 41 0F 57
  vcan0  7E8   [5]  04 41 0C 0E 65
  vcan0  7E8   [4]  03 41 0F 57
  vcan0  7E8   [4]  03 41 05 80
  vcan0  7E8   [4]  03 41 0D 06
  vcan0  7E8   [4]  03 41 0F 57
  vcan0  7E8   [5]  04 41 0C 0E 37
  vcan0  7E8   [4]  03 41 0D 04
  vcan0  7E8   [4]  03 41 05 80
  vcan0  7E8   [5]  04 41 0C 0D FB
  vcan0  7E8   [4]  03 41 0F 57
  vcan0  7E8   [5]  04 41 0C 0E 0D
  vcan0  7E8   [4]  03 41 0D 01
  vcan0  7E8   [4]  03 41 05 80
  vcan0  7E8   [4]  03 41 0F 57
  vcan0  7E8   [4]  03 41 05 80
  vcan0  7E8   [4]  03 41 0D 00
  vcan0  7E8   [4]  03 41 05 80
  vcan0  7E8   [4]  03 41 0D 00
  vcan0  7E8   [4]  03 41 05 80
  vcan0  7E8   [5]  04 41 0C 0E 80
  vcan0  7E8   [4]  03 41 0F 57
  vcan0  7E8   [4]  03 41 05 80
  vcan0  7E8   [5]  04 41 0C 0E 79
  vcan0  7E8   [4]  03 41 0F 57
  vcan0  7E8   [5]  04 41 0C 0E 52
  vcan0  7E8   [4]  03 41 0F 57
  vcan0  7E8   [4]  03 41 05 80
  vcan0  7E8   [4]  03 41 0D 00
  vcan0  7E8   [4]  03 41 05 80
  vcan0  7E8   [4]  03 41 0D 00
  vcan0  7E8   [4]  03 41 05 80
  vcan0  7E8   [5]  04 41 0C 0E 89
  vcan0  7E8   [4]  03 41 0F 57
  vcan0  7E8   [5]  04 41 0C 0E 8B
  vcan0  7E8   [4]  03 41 0F 57
  vcan0  7E8   [4]  03 41 05 80
  vcan0  7E8   [4]  03 41 0D 00
  vcan0  7E8   [4]  03 41 05 80
  vcan0  7E8   [5]  04 41 0C 0E 88
  vcan0  7E8   [4]  03 41 0F 57
  vcan0  7E8   [5]  04 41 0C 0E 7D
  vcan0  7E8   [4]  03 41 0D 00
  vcan0  7E8   [4]  03 41 05 80
  vcan0  7E8   [4]  03 41 0D 00
  vcan0  7E8   [4]  03 41 0F 57
  vcan0  7E8   [5]  04 41 0C 0E 77
  vcan0  7E8   [4]  03 41 0F 57
  vcan0  7E8   [4]  03 41 05 80
  vcan0  7E8   [4]  03 41 0D 00
  vcan0  7E8   [4]  03 41 05 80
  vcan0  7E8   [4]  03 41 0D 00
  vcan0  7E8   [4]  03 41 0F 57
  vcan0  7E8   [5]  04 41 0C 0E 7A
  vcan0  7E8   [4]  03 41 0F 57
  vcan0  7E8   [5]  04 41 0C 0E E5
  vcan0  7E8   [4]  03 41 0F 58
  vcan0  7E8   [4]  03 41 05 80
  vcan0  7E8   [4]  03 41 0D 00
  vcan0  7E8   [4]  03 41 05 80
  vcan0  7E8   [4]  03 41 0D 00
  vcan0  7E8   [4]  03 41 0F 58
  vcan0  7E8   [4]  03 41 05 80
  vcan0  7E8   [4]  03 41 0D 00
  vcan0  7E8   [4]  03 41 05 80
  vcan0  7E8   [5]  04 41 0C 0E 61
  vcan0  7E8   [4]  03 41 0F 57
  vcan0  7E8   [5]  04 41 0C 0E 6E
  vcan0  7E8   [4]  03 41 0F 57
  vcan0  7E8   [4]  03 41 05 80
  vcan0  7E8   [4]  03 41 0D 00
  vcan0  7E8   [4]  03 41 0F 57
  vcan0  7E8   [5]  04 41 0C 0E 64
  vcan0  7E8   [4]  03 41 0F 57
  vcan0  7E8   [4]  03 41 05 80
  vcan0  7E8   [5]  04 41 0C 0E 48
  vcan0  7E8   [4]  03 41 0D 00
  vcan0  7E8   [4]  03 41 0F 57
  vcan0  7E8   [4]  03 41 05 80
  vcan0  7E8   [5]  04 41 0C 0E 59
  vcan0  7E8   [4]  03 41 0D 00
  vcan0  7E8   [4]  03 41 0F 57
  vcan0  7E8   [4]  03 41 05 80
  vcan0  7E8   [5]  04 41 0C 0E 56
  vcan0  7E8   [4]  03 41 0D 00
  vcan0  7E8   [4]  03 41 0F 57
  vcan0  7E8   [5]  04 41 0C 0E 6D
  vcan0  7E8   [4]  03 41 0D 00
  vcan0  7E8   [4]  03 41 05 80
  vcan0  7E8   [5]  04 41 0C 0E 3E
  vcan0  7E8   [4]  03 41 0F 58
  vcan0  7E8   [5]  04 41 0C 0E 98
  vcan0  7E8   [4]  03 41 0D 00
  vcan0  7E8   [4]  03 41 05 80
  vcan0  7E8   [4]  03 41 0D 00
  vcan0  7E8   [4]  03 41 05 80
  vcan0  7E8   [5]  04 41 0C 0E 70
  vcan0  7E8   [4]  03 41 0F 58
  vcan0  7E8   [4]  03 41 05 80
  vcan0  7E8   [5]  04 41 0C 0E 82
  vcan0  7E8   [4]  03 41 0F 58
  vcan0  7E8   [5]  04 41 0C 0E 5F
  vcan0  7E8   [4]  03 41 05 80
  vcan0  7E8   [4]  03 41 0D 00
  vcan0  7E8   [4]  03 41 0F 58
  vcan0  7E8   [5]  04 41 0C 0E 50
  vcan0  7E8   [4]  03 41 0F 58
  vcan0  7E8   [4]  03 41 05 80
  vcan0  7E8   [4]  03 41 0D 00
  vcan0  7E8   [4]  03 41 05 80
  vcan0  7E8   [4]  03 41 0D 00
  vcan0  7E8   [4]  03 41 0F 58
  vcan0  7E8   [5]  04 41 0C 0E 73
  vcan0  7E8   [4]  03 41 0F 58
  vcan0  7E8   [5]  04 41 0C 0E 66
  vcan0  7E8   [4]  03 41 0D 00
  vcan0  7E8   [4]  03 41 05 80
  vcan0  7E8   [4]  03 41 0D 00
  vcan0  7E8   [4]  03 41 0F 57
  vcan0  7E8   [5]  04 41 0C 0E 86
  vcan0  7E8   [4]  03 41 0F 58
  vcan0  7E8   [5]  04 41 0C 0E 5B
  vcan0  7E8   [4]  03 41 0D 00
  vcan0  7E8   [4]  03 41 05 80
  vcan0  7E8   [4]  03 41 0D 00
  vcan0  7E8   [4]  03 41 0F 58
  vcan0  7E8   [5]  04 41 0C 0E 56
  vcan0  7E8   [4]  03 41 0D 00
  vcan0  7E8   [4]  03 41 0F 58
  vcan0  7E8   [5]  04 41 0C 0E 81
  vcan0  7E8   [4]  03 41 0D 00
  vcan0  7E8   [4]  03 41 05 80
  vcan0  7E8   [4]  03 41 0D 00
  vcan0  7E8   [4]  03 41 0F 58
  vcan0  7E8   [5]  04 41 0C 0E 4C
  vcan0  7E8   [4]  03 41 05 80
  vcan0  7E8   [4]  03 41 0D 00
  vcan0  7E8   [4]  03 41 05 80
  vcan0  7E8   [4]  03 41 0D 00
  vcan0  7E8   [4]  03 41 0F 58
  vcan0  7E8   [5]  04 41 0C 17 22
  vcan0  7E8   [4]  03 41 0F 58
  vcan0  7E8   [4]  03 41 05 80
  vcan0  7E8   [4]  03 41 0D 0A
  vcan0  7E8   [5]  04 41 0C 23 C7
  vcan0  7E8   [4]  03 41 0D 0D
  vcan0  7E8   [4]  03 41 05 80
  vcan0  7E8   [4]  03 41 0D 0F
  vcan0  7E8   [4]  03 41 0F 57
  vcan0  7E8   [5]  04 41 0C 1B 99
  vcan0  7E8   [4]  03 41 05 80
  vcan0  7E8   [4]  03 41 0D 18
  vcan0  7E8   [4]  03 41 0F 57
  vcan0  7E8   [5]  04 41 0C 26 33
  vcan0  7E8   [4]  03 41 0D 1B
  vcan0  7E8   [4]  03 41 05 80
  vcan0  7E8   [4]  03 41 0D 1E
  vcan0  7E8   [4]  03 41 0F 56
  vcan0  7E8   [5]  04 41 0C 1E D6
  vcan0  7E8   [4]  03 41 0F 56
  vcan0  7E8   [5]  04 41 0C 1B D0
  vcan0  7E8   [4]  03 41 0D 20
  vcan0  7E8   [4]  03 41 0F 57
  vcan0  7E8   [4]  03 41 05 80
  vcan0  7E8   [5]  04 41 0C 1F 08
  vcan0  7E8   [4]  03 41 0D 22
  vcan0  7E8   [4]  03 41 0F 57
  vcan0  7E8   [4]  03 41 05 80
  vcan0  7E8   [5]  04 41 0C 20 C9
  vcan0  7E8   [4]  03 41 0D 25
  vcan0  7E8   [4]  03 41 0F 57
  vcan0  7E8   [4]  03 41 05 80
  vcan0  7E8   [5]  04 41 0C 22 71
  vcan0  7E8   [4]  03 41 0D 27
  vcan0  7E8   [4]  03 41 0F 57
  vcan0  7E8   [4]  03 41 05 81
  vcan0  7E8   [5]  04 41 0C 24 C5
  vcan0  7E8   [4]  03 41 0D 29
  vcan0  7E8   [4]  03 41 0F 57
  vcan0  7E8   [4]  03 41 05 81
  vcan0  7E8   [5]  04 41 0C 26 70
  vcan0  7E8   [4]  03 41 0F 56
  vcan0  7E8   [4]  03 41 05 81
  vcan0  7E8   [5]  04 41 0C 25 42
  vcan0  7E8   [4]  03 41 05 81
  vcan0  7E8   [5]  04 41 0C 1D 79
  vcan0  7E8   [4]  03 41 0F 56
  vcan0  7E8   [5]  04 41 0C 1D 05
  vcan0  7E8   [4]  03 41 0F 57
  vcan0  7E8   [4]  03 41 05 81
  vcan0  7E8   [4]  03 41 0D 2C
  vcan0  7E8   [4]  03 41 05 81
  vcan0  7E8   [5]  04 41 0C 1C D3
  vcan0  7E8   [4]  03 41 0F 57
  vcan0  7E8   [5]  04 41 0C 1A F7
  vcan0  7E8   [4]  03 41 0D 28
  vcan0  7E8   [4]  03 41 05 82
  vcan0  7E8   [4]  03 41 0D 26
  vcan0  7E8   [4]  03 41 0F 57
  vcan0  7E8   [5]  04 41 0C 19 15
  vcan0  7E8   [4]  03 41 0F 57
  vcan0  7E8   [4]  03 41 05 81
  vcan0  7E8   [4]  03 41 0D 25
  vcan0  7E8   [4]  03 41 05 81
  vcan0  7E8   [5]  04 41 0C 18 EE
  vcan0  7E8   [4]  03 41 0F 58
  vcan0  7E8   [5]  04 41 0C 19 A5
  vcan0  7E8   [4]  03 41 0F 58
  vcan0  7E8   [4]  03 41 05 81
  vcan0  7E8   [4]  03 41 0D 28
  vcan0  7E8   [4]  03 41 05 81
  vcan0  7E8   [4]  03 41 0D 27
  vcan0  7E8   [4]  03 41 0F 58
  vcan0  7E8   [4]  03 41 05 81
  vcan0  7E8   [4]  03 41 0D 28
  vcan0  7E8   [4]  03 41 05 81
  vcan0  7E8   [5]  04 41 0C 1C 0C
  vcan0  7E8   [4]  03 41 0F 57
  vcan0  7E8   [5]  04 41 0C 1D 41
  vcan0  7E8   [4]  03 41 0F 57
  vcan0  7E8   [4]  03 41 05 80
  vcan0  7E8   [4]  03 41 0D 2C
  vcan0  7E8   [4]  03 41 05 80
  vcan0  7E8   [5]  04 41 0C 1C D3
  vcan0  7E8   [5]  04 41 0C 1C 49
  vcan0  7E8   [4]  03 41 0F 56
  vcan0  7E8   [5]  04 41 0C 1B 68
  vcan0  7E8   [4]  03 41 0D 29
  vcan0  7E8   [4]  03 41 05 81
  vcan0  7E8   [5]  04 41 0C 1A 65
  vcan0  7E8   [4]  03 41 0F 57
  vcan0  7E8   [4]  03 41 05 81
  vcan0  7E8   [4]  03 41 0D 28
  vcan0  7E8   [4]  03 41 05 81
  vcan0  7E8   [4]  03 41 0F 57
  vcan0  7E8   [4]  03 41 05 80
  vcan0  7E8   [4]  03 41 0D 27
  vcan0  7E8   [4]  03 41 05 80
  vcan0  7E8   [4]  03 41 0D 25
  vcan0  7E8   [4]  03 41 05 80
  vcan0  7E8   [5]  04 41 0C 17 AC
  vcan0  7E8   [4]  03 41 0F 57
  vcan0  7E8   [5]  04 41 0C 17 14
  vcan0  7E8   [4]  03 41 0D 22
  vcan0  7E8   [4]  03 41 0F 57
  vcan0  7E8   [5]  04 41 0C 15 86
  vcan0  7E8   [4]  03 41 0D 20
  vcan0  7E8   [4]  03 41 05 80
  vcan0  7E8   [5]  04 41 0C 12 5B
  vcan0  7E8   [4]  03 41 0F 58
  vcan0  7E8   [4]  03 41 05 80
  vcan0  7E8   [4]  03 41 0D 1B
  vcan0  7E8   [4]  03 41 05 80
  vcan0  7E8   [5]  04 41 0C 0E 3F
  vcan0  7E8   [4]  03 41 0F 58
  vcan0  7E8   [5]  04 41 0C 0E 59
  vcan0  7E8   [4]  03 41 0D 13
  vcan0  7E8   [4]  03 41 05 80
  vcan0  7E8   [4]  03 41 0D 0F
  vcan0  7E8   [4]  03 41 05 7F
  vcan0  7E8   [5]  04 41 0C 0E FC
  vcan0  7E8   [4]  03 41 0F 58
  vcan0  7E8   [5]  04 41 0C 0F 49
  vcan0  7E8   [4]  03 41 0D 08
  vcan0  7E8   [4]  03 41 0F 58
  vcan0  7E8   [4]  03 41 05 7F
  vcan0  7E8   [5]  04 41 0C 0F 84
  vcan0  7E8   [4]  03 41 0D 04
  vcan0  7E8   [4]  03 41 0F 58
  vcan0  7E8   [4]  03 41 05 7F
  vcan0  7E8   [5]  04 41 0C 0E C2
  vcan0  7E8   [4]  03 41 0D 02
  vcan0  7E8   [4]  03 41 0F 58
  vcan0  7E8   [4]  03 41 05 7F
  vcan0  7E8   [5]  04 41 0C 0E D1
  vcan0  7E8   [4]  03 41 0D 01
  vcan0  7E8   [4]  03 41 0F 58
  vcan0  7E8   [4]  03 41 05 7F
  vcan0  7E8   [4]  03 41 0D 00
  vcan0  7E8   [4]  03 41 05 7F
  vcan0  7E8   [5]  04 41 0C 0E 87
  vcan0  7E8   [4]  03 41 0F 58
  vcan0  7E8   [5]  04 41 0C 0E 57
  vcan0  7E8   [4]  03 41 0D 00
  vcan0  7E8   [4]  03 41 05 7F
  vcan0  7E8   [4]  03 41 0D 00
  vcan0  7E8   [4]  03 41 05 7F
  vcan0  7E8   [5]  04 41 0C 0E C2
  vcan0  7E8   [4]  03 41 0F 59
  vcan0  7E8   [5]  04 41 0C 0E 6C
  vcan0  7E8   [4]  03 41 0F 59
  vcan0  7E8   [5]  04 41 0C 0E 79
  vcan0  7E8   [4]  03 41 0D 00
  vcan0  7E8   [4]  03 41 05 7F
  vcan0  7E8   [4]  03 41 0D 00
  vcan0  7E8   [4]  03 41 05 7F
  vcan0  7E8   [5]  04 41 0C 0E 86
  vcan0  7E8   [4]  03 41 0F 58
  vcan0  7E8   [5]  04 41 0C 0E 89
  vcan0  7E8   [4]  03 41 0F 58
  vcan0  7E8   [4]  03 41 05 7F
  vcan0  7E8   [4]  03 41 0D 00
  vcan0  7E8   [4]  03 41 05 7F
  vcan0  7E8   [4]  03 41 0D 00
  vcan0  7E8   [4]  03 41 05 7F
  vcan0  7E8   [5]  04 41 0C 0E 83
  vcan0  7E8   [4]  03 41 0F 58
  vcan0  7E8   [4]  03 41 05 7F
  vcan0  7E8   [4]  03 41 0D 00
  vcan0  7E8   [4]  03 41 0F 58
  vcan0  7E8   [4]  03 41 05 7F
  vcan0  7E8   [4]  03 41 0D 00
  vcan0  7E8   [4]  03 41 0F 58
  vcan0  7E8   [5]  04 41 0C 0E 6C
  vcan0  7E8   [4]  03 41 0F 58
  vcan0  7E8   [5]  04 41 0C 0F B8
  vcan0  7E8   [4]  03 41 0D 00
  vcan0  7E8   [4]  03 41 05 7F
  vcan0  7E8   [4]  03 41 0D 00
  vcan0  7E8   [4]  03 41 0F 58
  vcan0  7E8   [5]  04 41 0C 0E BF
  vcan0  7E8   [4]  03 41 0F 59
  vcan0  7E8   [5]  04 41 0C 0F C0
  vcan0  7E8   [4]  03 41 0D 01
  vcan0  7E8   [4]  03 41 05 7F
  vcan0  7E8   [5]  04 41 0C 0F 2A
  vcan0  7E8   [4]  03 41 0F 59
  vcan0  7E8   [5]  04 41 0C 11 7B
  vcan0  7E8   [4]  03 41 0D 06
  vcan0  7E8   [4]  03 41 05 7F
  vcan0  7E8   [4]  03 41 0D 0C
  vcan0  7E8   [4]  03 41 05 80
  vcan0  7E8   [4]  03 41 0D 0E
  vcan0  7E8   [4]  03 41 0F 57
  vcan0  7E8   [5]  04 41 0C 16 94
  vcan0  7E8   [4]  03 41 0F 58
  vcan0  7E8   [4]  03 41 05 80
  vcan0  7E8   [4]  03 41 0D 0F
  vcan0  7E8   [4]  03 41 05 80
  vcan0  7E8   [4]  03 41 0D 15
  vcan0  7E8   [4]  03 41 0F 58
  vcan0  7E8   [5]  04 41 0C 21 74
  vcan0  7E8   [4]  03 41 0F 57
  vcan0  7E8   [5]  04 41 0C 18 98
  vcan0  7E8   [4]  03 41 0D 17
  vcan0  7E8   [4]  03 41 05 80
  vcan0  7E8   [4]  03 41 0D 17
  vcan0  7E8   [4]  03 41 05 80
  vcan0  7E8   [5]  04 41 0C 14 5D
  vcan0  7E8   [4]  03 41 05 80
  vcan0  7E8   [4]  03 41 0D 16
  vcan0  7E8   [4]  03 41 05 80
  vcan0  7E8   [4]  03 41 0D 18
  vcan0  7E8   [4]  03 41 05 80
  vcan0  7E8   [5]  04 41 0C 17 0C
  vcan0  7E8   [4]  03 41 0F 57
  vcan0  7E8   [4]  03 41 05 80
  vcan0  7E8   [5]  04 41 0C 17 7C
  vcan0  7E8   [4]  03 41 0D 1A
  vcan0  7E8   [4]  03 41 0F 57
  vcan0  7E8   [4]  03 41 05 80
  vcan0  7E8   [5]  04 41 0C 17 21
  vcan0  7E8   [4]  03 41 0D 1A
  vcan0  7E8   [4]  03 41 0F 57
  vcan0  7E8   [5]  04 41 0C 16 FB
  vcan0  7E8   [4]  03 41 0D 19
  vcan0  7E8   [4]  03 41 05 80
  vcan0  7E8   [4]  03 41 0D 19
  vcan0  7E8   [4]  03 41 0F 58
  vcan0  7E8   [5]  04 41 0C 17 ED
  vcan0  7E8   [4]  03 41 0D 1E
  vcan0  7E8   [4]  03 41 0D 1E
  vcan0  7E8   [5]  04 41 0C 1A 7C
  vcan0  7E8   [4]  03 41 0D 1D
  vcan0  7E8   [4]  03 41 05 80
  vcan0  7E8   [4]  03 41 0D 1B
  vcan0  7E8   [4]  03 41 05 80
  vcan0  7E8   [5]  04 41 0C 16 CC
  vcan0  7E8   [4]  03 41 0F 58
  vcan0  7E8   [5]  04 41 0C 15 D5
  vcan0  7E8   [4]  03 41 0F 58
  vcan0  7E8   [4]  03 41 05 80
  vcan0  7E8   [4]  03 41 0D 18
  vcan0  7E8   [4]  03 41 05 80
  vcan0  7E8   [5]  04 41 0C 15 F3
  vcan0  7E8   [4]  03 41 0F 59
  vcan0  7E8   [5]  04 41 0C 18 66
  vcan0  7E8   [4]  03 41 0F 59
  vcan0  7E8   [5]  04 41 0C 1B 4E
  vcan0  7E8   [4]  03 41 0F 58
  vcan0  7E8   [4]  03 41 05 80
  vcan0  7E8   [4]  03 41 0D 23
  vcan0  7E8   [4]  03 41 05 80
  vcan0  7E8   [5]  04 41 0C 21 17
  vcan0  7E8   [4]  03 41 0F 57
  vcan0  7E8   [5]  04 41 0C 1B 94
  vcan0  7E8   [4]  03 41 0D 25
  vcan0  7E8   [4]  03 41 05 80
  vcan0  7E8   [5]  04 41 0C 18 99
  vcan0  7E8   [4]  03 41 0F 57
  vcan0  7E8   [4]  03 41 05 80
  vcan0  7E8   [4]  03 41 0D 24
  vcan0  7E8   [4]  03 41 05 80
  vcan0  7E8   [4]  03 41 0D 24
  vcan0  7E8   [4]  03 41 05 80
  vcan0  7E8   [5]  04 41 0C 17 AD
  vcan0  7E8   [4]  03 41 0F 58
  vcan0  7E8   [4]  03 41 05 80
  vcan0  7E8   [4]  03 41 0D 24
  vcan0  7E8   [4]  03 41 05 80
  vcan0  7E8   [4]  03 41 0D 25
  vcan0  7E8   [4]  03 41 0F 58
  vcan0  7E8   [5]  04 41 0C 19 24
  vcan0  7E8   [4]  03 41 0F 58
  vcan0  7E8   [5]  04 41 0C 18 82
  vcan0  7E8   [4]  03 41 0D 25
  vcan0  7E8   [4]  03 41 05 80
  vcan0  7E8   [5]  04 41 0C 19 12
  vcan0  7E8   [4]  03 41 0F 58
  vcan0  7E8   [5]  04 41 0C 19 B7
  vcan0  7E8   [4]  03 41 0F 58
  vcan0  7E8   [4]  03 41 05 80
  vcan0  7E8   [4]  03 41 0D 28
  vcan0  7E8   [4]  03 41 05 80
  vcan0  7E8   [5]  04 41 0C 1B 9C
  vcan0  7E8   [4]  03 41 0D 2A
  vcan0  7E8   [4]  03 41 05 80
  vcan0  7E8   [5]  04 41 0C 1B 7F
  vcan0  7E8   [4]  03 41 0F 57
  vcan0  7E8   [5]  04 41 0C 16 6F
  vcan0  7E8   [4]  03 41 0D 28
  vcan0  7E8   [4]  03 41 05 80
  vcan0  7E8   [4]  03 41 0D 25
  vcan0  7E8   [4]  03 41 0F 57
  vcan0  7E8   [5]  04 41 0C 0F EB
  vcan0  7E8   [4]  03 41 0F 57
  vcan0  7E8   [5]  04 41 0C 0E AA
  vcan0  7E8   [4]  03 41 0F 57
  vcan0  7E8   [4]  03 41 05 80
  vcan0  7E8   [4]  03 41 0D 21
  vcan0  7E8   [4]  03 41 05 80
  vcan0  7E8   [4]  03 41 0D 20
  vcan0  7E8   [4]  03 41 0F 58
  vcan0  7E8   [5]  04 41 0C 1B C8
  vcan0  7E8   [4]  03 41 0F 58
  vcan0  7E8   [5]  04 41 0C 1C C7
  vcan0  7E8   [4]  03 41 0F 58
  vcan0  7E8   [4]  03 41 05 81
  vcan0  7E8   [5]  04 41 0C 1D FC
  vcan0  7E8   [4]  03 41 0F 58
  vcan0  7E8   [5]  04 41 0C 1E 6D
  vcan0  7E8   [4]  03 41 0F 58
  vcan0  7E8   [4]  03 41 05 81
  vcan0  7E8   [4]  03 41 0D 23
  vcan0  7E8   [4]  03 41 05 80
  vcan0  7E8   [5]  04 41 0C 1F BC
  vcan0  7E8   [4]  03 41 0F 58
  vcan0  7E8   [4]  03 41 05 80
  vcan0  7E8   [4]  03 41 0D 23
  vcan0  7E8   [4]  03 41 05 80
  vcan0  7E8   [5]  04 41 0C 20 01
  vcan0  7E8   [4]  03 41 0F 58
  vcan0  7E8   [5]  04 41 0C 20 38
  vcan0  7E8   [4]  03 41 0D 24
  vcan0  7E8   [4]  03 41 05 80
  vcan0  7E8   [4]  03 41 0D 24
  vcan0  7E8   [4]  03 41 0F 58
  vcan0  7E8   [5]  04 41 0C 21 44
  vcan0  7E8   [4]  03 41 0F 59
  vcan0  7E8   [5]  04 41 0C 23 E1
  vcan0  7E8   [4]  03 41 0D 28
  vcan0  7E8   [4]  03 41 05 80
  vcan0  7E8   [4]  03 41 0D 2A
  vcan0  7E8   [4]  03 41 0F 58
  vcan0  7E8   [4]  03 41 0F 57
  vcan0  7E8   [5]  04 41 0C 27 5A
  vcan0  7E8   [4]  03 41 0D 2C
  vcan0  7E8   [4]  03 41 05 80
  vcan0  7E8   [4]  03 41 0D 2B
  vcan0  7E8   [4]  03 41 05 80
  vcan0  7E8   [4]  03 41 0D 28
  vcan0  7E8   [4]  03 41 0F 57
  vcan0  7E8   [5]  04 41 0C 22 89
  vcan0  7E8   [4]  03 41 0F 57
  vcan0  7E8   [4]  03 41 05 81
  vcan0  7E8   [5]  04 41 0C 20 7C
  vcan0  7E8   [4]  03 41 0F 58
  vcan0  7E8   [5]  04 41 0C 1F 2B
  vcan0  7E8   [4]  03 41 0D 22
  vcan0  7E8   [4]  03 41 05 81
  vcan0  7E8   [4]  03 41 0D 22
  vcan0  7E8   [4]  03 41 05 81
  vcan0  7E8   [5]  04 41 0C 20 95
  vcan0  7E8   [4]  03 41 0F 58
  vcan0  7E8   [5]  04 41 0C 22 63
  vcan0  7E8   [4]  03 41 0D 26
  vcan0  7E8   [4]  03 41 05 81
  vcan0  7E8   [4]  03 41 0D 27
  vcan0  7E8   [4]  03 41 05 81
  vcan0  7E8   [5]  04 41 0C 23 62
  vcan0  7E8   [4]  03 41 0F 57
  vcan0  7E8   [5]  04 41 0C 23 12
  vcan0  7E8   [4]  03 41 0D 27
  vcan0  7E8   [4]  03 41 05 81
  vcan0  7E8   [4]  03 41 0D 23
  vcan0  7E8   [4]  03 41 05 81
  vcan0  7E8   [5]  04 41 0C 1A C4
  vcan0  7E8   [4]  03 41 0F 58
  vcan0  7E8   [5]  04 41 0C 17 A5
  vcan0  7E8   [4]  03 41 0F 58
  vcan0  7E8   [5]  04 41 0C 17 9C
  vcan0  7E8   [4]  03 41 0D 1A
  vcan0  7E8   [4]  03 41 05 81
  vcan0  7E8   [4]  03 41 0D 19
  vcan0  7E8   [4]  03 41 05 81
  vcan0  7E8   [5]  04 41 0C 14 E5
  vcan0  7E8   [4]  03 41 0F 59
  vcan0  7E8   [5]  04 41 0C 17 F6
  vcan0  7E8   [4]  03 41 0D 1B
  vcan0  7E8   [4]  03 41 05 81
  vcan0  7E8   [4]  03 41 0D 1D
  vcan0  7E8   [4]  03 41 0F 58
  vcan0  7E8   [5]  04 41 0C 1B AE
  vcan0  7E8   [4]  03 41 0F 58
  vcan0  7E8   [5]  04 41 0C 1C 08
  vcan0  7E8   [4]  03 41 0D 1F
  vcan0  7E8   [4]  03 41 05 81
  vcan0  7E8   [4]  03 41 0D 1F
  vcan0  7E8   [4]  03 41 05 81
  vcan0  7E8   [4]  03 41 0D 20
  vcan0  7E8   [4]  03 41 0F 58
  vcan0  7E8   [5]  04 41 0C 1E AF
  vcan0  7E8   [4]  03 41 0F 58
  vcan0  7E8   [5]  04 41 0C 1F 09
  vcan0  7E8   [4]  03 41 0F 57
  vcan0  7E8   [5]  04 41 0C 1E 35
  vcan0  7E8   [4]  03 41 0D 21
  vcan0  7E8   [4]  03 41 05 80
  vcan0  7E8   [5]  04 41 0C 1E 14
  vcan0  7E8   [4]  03 41 0F 58
  vcan0  7E8   [5]  04 41 0C 1E CF
  vcan0  7E8   [4]  03 41 0F 58
  vcan0  7E8   [5]  04 41 0C 1E D9
  vcan0  7E8   [4]  03 41 0F 58
  vcan0  7E8   [4]  03 41 05 80
  vcan0  7E8   [5]  04 41 0C 1E C7
  vcan0  7E8   [4]  03 41 0F 58
  vcan0  7E8   [5]  04 41 0C 1E BE
  vcan0  7E8   [4]  03 41 0F 58
  vcan0  7E8   [5]  04 41 0C 1E AA
  vcan0  7E8   [4]  03 41 0F 58
  vcan0  7E8   [5]  04 41 0C 1E A7
  vcan0  7E8   [4]  03 41 0F 58
  vcan0  7E8   [5]  04 41 0C 1E C4
  vcan0  7E8   [4]  03 41 0D 22
  vcan0  7E8   [4]  03 41 05 80
  vcan0  7E8   [4]  03 41 0D 21
  vcan0  7E8   [4]  03 41 05 80
  vcan0  7E8   [5]  04 41 0C 1E 2C
  vcan0  7E8   [4]  03 41 0F 58
  vcan0  7E8   [5]  04 41 0C 1D 89
  vcan0  7E8   [4]  03 41 0D 21
  vcan0  7E8   [4]  03 41 05 80
  vcan0  7E8   [4]  03 41 0D 20
  vcan0  7E8   [4]  03 41 0F 58
  vcan0  7E8   [5]  04 41 0C 1C C1
  vcan0  7E8   [4]  03 41 0D 20
  vcan0  7E8   [4]  03 41 05 80
  vcan0  7E8   [4]  03 41 0D 20
  vcan0  7E8   [4]  03 41 05 80
  vcan0  7E8   [4]  03 41 0D 1D
  vcan0  7E8   [4]  03 41 0F 58
  vcan0  7E8   [5]  04 41 0C 17 D2
  vcan0  7E8   [4]  03 41 0F 58
  vcan0  7E8   [5]  04 41 0C 13 F6
  vcan0  7E8   [4]  03 41 0D 18
  vcan0  7E8   [4]  03 41 05 80
  vcan0  7E8   [5]  04 41 0C 10 86
  vcan0  7E8   [4]  03 41 0F 59
  vcan0  7E8   [5]  04 41 0C 0F 00
  vcan0  7E8   [4]  03 41 0F 59
  vcan0  7E8   [4]  03 41 05 7F
  vcan0  7E8   [4]  03 41 0D 0F
  vcan0  7E8   [4]  03 41 05 7F
  vcan0  7E8   [4]  03 41 0D 0D
  vcan0  7E8   [4]  03 41 0F 59
  vcan0  7E8   [5]  04 41 0C 0E 5B
  vcan0  7E8   [4]  03 41 0D 0C
  vcan0  7E8   [4]  03 41 05 7F
  vcan0  7E8   [4]  03 41 0D 0A
  vcan0  7E8   [4]  03 41 05 7F
  vcan0  7E8   [4]  03 41 0D 08
  vcan0  7E8   [4]  03 41 0F 59
  vcan0  7E8   [5]  04 41 0C 0E 80
  vcan0  7E8   [4]  03 41 0F 59
  vcan0  7E8   [5]  04 41 0C 0E 57
  vcan0  7E8   [4]  03 41 0D 05
  vcan0  7E8   [4]  03 41 05 7F
  vcan0  7E8   [5]  04 41 0C 0E 66
  vcan0  7E8   [4]  03 41 05 7F
  vcan0  7E8   [5]  04 41 0C 0E 82
  vcan0  7E8   [4]  03 41 0D 01
  vcan0  7E8   [4]  03 41 0F 59
  vcan0  7E8   [4]  03 41 05 7F
  vcan0  7E8   [4]  03 41 0D 00
  vcan0  7E8   [4]  03 41 0F 59
  vcan0  7E8   [4]  03 41 05 7F
  vcan0  7E8   [4]  03 41 0D 00
  vcan0  7E8   [4]  03 41 0F 59
  vcan0  7E8   [5]  04 41 0C 0E 59
  vcan0  7E8   [4]  03 41 0F 59
  vcan0  7E8   [5]  04 41 0C 0E 64
  vcan0  7E8   [4]  03 41 0D 00
  vcan0  7E8   [4]  03 41 05 7F
  vcan0  7E8   [5]  04 41 0C 0E 44
  vcan0  7E8   [4]  03 41 0F 59
  vcan0  7E8   [5]  04 41 0C 0E 4C
  vcan0  7E8   [4]  03 41 0D 00
  vcan0  7E8   [4]  03 41 05 7F
  vcan0  7E8   [4]  03 41 0D 00
  vcan0  7E8   [4]  03 41 0F 59
  vcan0  7E8   [5]  04 41 0C 17 3A
  vcan0  7E8   [4]  03 41 0F 59
  vcan0  7E8   [4]  03 41 05 7F
  vcan0  7E8   [4]  03 41 0D 08
  vcan0  7E8   [4]  03 41 05 7F
  vcan0  7E8   [4]  03 41 0D 0B
  vcan0  7E8   [4]  03 41 0F 58
  vcan0  7E8   [5]  04 41 0C 24 69
  vcan0  7E8   [4]  03 41 0D 0D
  vcan0  7E8   [4]  03 41 05 80
  vcan0  7E8   [5]  04 41 0C 18 06
  vcan0  7E8   [4]  03 41 0F 58
  vcan0  7E8   [4]  03 41 05 80
  vcan0  7E8   [4]  03 41 0D 10
  vcan0  7E8   [4]  03 41 05 80
  vcan0  7E8   [5]  04 41 0C 1B 8D
  vcan0  7E8   [4]  03 41 0F 58
  vcan0  7E8   [5]  04 41 0C 1F 09
  vcan0  7E8   [4]  03 41 0F 58
  vcan0  7E8   [4]  03 41 05 80
  vcan0  7E8   [4]  03 41 0D 18
  vcan0  7E8   [4]  03 41 05 80
  vcan0  7E8   [4]  03 41 0D 18
  vcan0  7E8   [4]  03 41 0F 57
  vcan0  7E8   [5]  04 41 0C 17 8E
  vcan0  7E8   [4]  03 41 0F 58
  vcan0  7E8   [4]  03 41 05 80
  vcan0  7E8   [4]  03 41 0D 16
  vcan0  7E8   [4]  03 41 05 80
  vcan0  7E8   [5]  04 41 0C 13 01
  vcan0  7E8   [4]  03 41 0D 15
  vcan0  7E8   [4]  03 41 05 80
  vcan0  7E8   [4]  03 41 0D 14
  vcan0  7E8   [4]  03 41 05 80
  vcan0  7E8   [4]  03 41 0D 16
  vcan0  7E8   [4]  03 41 0F 58
  vcan0  7E8   [5]  04 41 0C 15 DF
  vcan0  7E8   [4]  03 41 0F 58
  vcan0  7E8   [4]  03 41 05 80
  vcan0  7E8   [4]  03 41 0D 1A
  vcan0  7E8   [4]  03 41 0F 57
  vcan0  7E8   [5]  04 41 0C 17 CF
  vcan0  7E8   [4]  03 41 0D 1A
  vcan0  7E8   [4]  03 41 05 80
  vcan0  7E8   [4]  03 41 0D 1E
  vcan0  7E8   [4]  03 41 0F 58
  vcan0  7E8   [5]  04 41 0C 1B D2
  vcan0  7E8   [4]  03 41 0F 57
  vcan0  7E8   [4]  03 41 05 80
  vcan0  7E8   [5]  04 41 0C 1D 3F
  vcan0  7E8   [4]  03 41 0F 57
  vcan0  7E8   [4]  03 41 05 80
  vcan0  7E8   [4]  03 41 0D 20
  vcan0  7E8   [4]  03 41 05 80
  vcan0  7E8   [4]  03 41 0D 1F
  vcan0  7E8   [4]  03 41 05 80
  vcan0  7E8   [5]  04 41 0C 1B CE
  vcan0  7E8   [4]  03 41 0F 57
  vcan0  7E8   [4]  03 41 05 80
  vcan0  7E8   [4]  03 41 0D 1E
  vcan0  7E8   [4]  03 41 0F 57
  vcan0  7E8   [5]  04 41 0C 18 A1
  vcan0  7E8   [4]  03 41 0F 57
  vcan0  7E8   [5]  04 41 0C 15 5C
  vcan0  7E8   [4]  03 41 0D 16
  vcan0  7E8   [4]  03 41 05 81
  vcan0  7E8   [5]  04 41 0C 11 A0
  vcan0  7E8   [4]  03 41 0F 58
  vcan0  7E8   [5]  04 41 0C 10 34
  vcan0  7E8   [4]  03 41 0F 58
  vcan0  7E8   [5]  04 41 0C 0D 65
  vcan0  7E8   [4]  03 41 0D 0E
  vcan0  7E8   [4]  03 41 05 80
  vcan0  7E8   [4]  03 41 0D 0D
  vcan0  7E8   [4]  03 41 0F 58
  vcan0  7E8   [5]  04 41 0C 0D 99
  vcan0  7E8   [4]  03 41 0D 0D
  vcan0  7E8   [4]  03 41 05 80
  vcan0  7E8   [4]  03 41 0D 0C
  vcan0  7E8   [4]  03 41 0F 58
  vcan0  7E8   [5]  04 41 0C 0E B6
  vcan0  7E8   [4]  03 41 0D 0B
  vcan0  7E8   [4]  03 41 05 80
  vcan0  7E8   [4]  03 41 0D 0B
  vcan0  7E8   [4]  03 41 0F 58
  vcan0  7E8   [5]  04 41 0C 0E 3B
  vcan0  7E8   [4]  03 41 0F 58
  vcan0  7E8   [5]  04 41 0C 0E 83
  vcan0  7E8   [4]  03 41 0D 0A
  vcan0  7E8   [4]  03 41 05 80
  vcan0  7E8   [5]  04 41 0C 0E C5
  vcan0  7E8   [4]  03 41 0F 58
  vcan0  7E8   [5]  04 41 0C 0E B1
  vcan0  7E8   [4]  03 41 0D 09
  vcan0  7E8   [4]  03 41 05 80
  vcan0  7E8   [4]  03 41 0D 08
  vcan0  7E8   [4]  03 41 0F 58
  vcan0  7E8   [5]  04 41 0C 0E A2
  vcan0  7E8   [4]  03 41 0D 05
  vcan0  7E8   [4]  03 41 05 80
  vcan0  7E8   [4]  03 41 0D 03
  vcan0  7E8   [4]  03 41 05 80
  vcan0  7E8   [4]  03 41 0D 01
  vcan0  7E8   [4]  03 41 05 80
  vcan0  7E8   [4]  03 41 0F 59
  vcan0  7E8   [5]  04 41 0C 0E A1
  vcan0  7E8   [4]  03 41 0F 59
  vcan0  7E8   [4]  03 41 05 80
  vcan0  7E8   [4]  03 41 0D 00
  vcan0  7E8   [4]  03 41 05 7F
  vcan0  7E8   [4]  03 41 0D 00
  vcan0  7E8   [4]  03 41 0F 59
  vcan0  7E8   [4]  03 41 05 7F
  vcan0  7E8   [4]  03 41 0D 02
  vcan0  7E8   [4]  03 41 05 7F
  vcan0  7E8   [5]  04 41 0C 19 27
  vcan0  7E8   [4]  03 41 0F 59
  vcan0  7E8   [5]  04 41 0C 21 49
  vcan0  7E8   [4]  03 41 0D 0D
  vcan0  7E8   [4]  03 41 05 80
  vcan0  7E8   [4]  03 41 0D 0F
  vcan0  7E8   [4]  03 41 0F 57
  vcan0  7E8   [5]  04 41 0C 17 90
  vcan0  7E8   [4]  03 41 0F 58
  vcan0  7E8   [5]  04 41 0C 1E 10
  vcan0  7E8   [4]  03 41 0F 58
  vcan0  7E8   [4]  03 41 05 80
  vcan0  7E8   [4]  03 41 0D 1A
  vcan0  7E8   [4]  03 41 0F 57
  vcan0  7E8   [5]  04 41 0C 26 FC
  vcan0  7E8   [4]  03 41 0F 57
  vcan0  7E8   [5]  04 41 0C 19 5A
  vcan0  7E8   [4]  03 41 0D 1A
  vcan0  7E8   [4]  03 41 05 80
  vcan0  7E8   [4]  03 41 0D 1B
  vcan0  7E8   [4]  03 41 05 80
  vcan0  7E8   [5]  04 41 0C 18 E2
  vcan0  7E8   [4]  03 41 0F 57
  vcan0  7E8   [5]  04 41 0C 19 BF
  vcan0  7E8   [4]  03 41 0F 57
  vcan0  7E8   [4]  03 41 05 80
  vcan0  7E8   [4]  03 41 0D 1B
  vcan0  7E8   [4]  03 41 05 80
  vcan0  7E8   [4]  03 41 0D 19
  vcan0  7E8   [4]  03 41 0F 57
  vcan0  7E8   [5]  04 41 0C 14 A7
  vcan0  7E8   [4]  03 41 0F 58
  vcan0  7E8   [5]  04 41 0C 12 FF
  vcan0  7E8   [4]  03 41 0F 58
  vcan0  7E8   [4]  03 41 05 80
  vcan0  7E8   [4]  03 41 0D 13
  vcan0  7E8   [4]  03 41 05 80
  vcan0  7E8   [5]  04 41 0C 10 E3
  vcan0  7E8   [4]  03 41 0F 59
  vcan0  7E8   [5]  04 41 0C 12 54
  vcan0  7E8   [4]  03 41 0F 59
  vcan0  7E8   [4]  03 41 05 80
  vcan0  7E8   [4]  03 41 0D 15
  vcan0  7E8   [4]  03 41 05 80
  vcan0  7E8   [4]  03 41 0D 16
  vcan0  7E8   [4]  03 41 0F 59
  vcan0  7E8   [4]  03 41 05 80
  vcan0  7E8   [4]  03 41 0D 18
  vcan0  7E8   [4]  03 41 0F 59
  vcan0  7E8   [5]  04 41 0C 16 81
  vcan0  7E8   [4]  03 41 0D 19
  vcan0  7E8   [4]  03 41 05 80
  vcan0  7E8   [4]  03 41 0D 17
  vcan0  7E8   [4]  03 41 05 80
  vcan0  7E8   [5]  04 41 0C 13 A9
  vcan0  7E8   [4]  03 41 0F 58
  vcan0  7E8   [5]  04 41 0C 13 27
  vcan0  7E8   [4]  03 41 0D 15
  vcan0  7E8   [4]  03 41 05 80
  vcan0  7E8   [4]  03 41 0D 14
  vcan0  7E8   [4]  03 41 05 80
  vcan0  7E8   [5]  04 41 0C 11 ED
  vcan0  7E8   [4]  03 41 0F 58
  vcan0  7E8   [5]  04 41 0C 11 CA
  vcan0  7E8   [4]  03 41 0F 58
  vcan0  7E8   [5]  04 41 0C 11 39
  vcan0  7E8   [4]  03 41 0D 12
  vcan0  7E8   [4]  03 41 05 80
  vcan0  7E8   [5]  04 41 0C 0F B9
  vcan0  7E8   [4]  03 41 0F 59
  vcan0  7E8   [5]  04 41 0C 0E 1B
  vcan0  7E8   [4]  03 41 0F 59
  vcan0  7E8   [4]  03 41 05 80
  vcan0  7E8   [4]  03 41 0D 0F
  vcan0  7E8   [4]  03 41 05 80
  vcan0  7E8   [4]  03 41 0F 59
  vcan0  7E8   [4]  03 41 05 80
  vcan0  7E8   [4]  03 41 0D 10
  vcan0  7E8   [4]  03 41 05 80
  vcan0  7E8   [4]  03 41 0D 11
  vcan0  7E8   [4]  03 41 05 80
  vcan0  7E8   [5]  04 41 0C 0F 39
  vcan0  7E8   [4]  03 41 0F 58
  vcan0  7E8   [4]  03 41 05 80
  vcan0  7E8   [4]  03 41 0D 11
  vcan0  7E8   [4]  03 41 05 80
  vcan0  7E8   [4]  03 41 0D 12
  vcan0  7E8   [4]  03 41 05 80
  vcan0  7E8   [5]  04 41 0C 12 E6
  vcan0  7E8   [4]  03 41 0F 59
  vcan0  7E8   [5]  04 41 0C 16 38
  vcan0  7E8   [4]  03 41 0D 19
  vcan0  7E8   [4]  03 41 05 80
  vcan0  7E8   [4]  03 41 0D 1C
  vcan0  7E8   [4]  03 41 05 80
  vcan0  7E8   [4]  03 41 0D 1D
  vcan0  7E8   [4]  03 41 0F 57
  vcan0  7E8   [5]  04 41 0C 19 B7
  vcan0  7E8   [4]  03 41 0F 57
  vcan0  7E8   [4]  03 41 05 80
  vcan0  7E8   [4]  03 41 0D 1D
  vcan0  7E8   [4]  03 41 0F 58
  vcan0  7E8   [5]  04 41 0C 1B 38
  vcan0  7E8   [4]  03 41 0F 57
  vcan0  7E8   [5]  04 41 0C 1B A7
  vcan0  7E8   [7]  06 41 01 00 07 E1 00
  vcan0  7E8   [7]  06 41 01 00 07 E1 00
  vcan0  7E8   [7]  06 41 01 00 07 E1 00
  vcan0  7E8   [7]  06 41 01 00 07 E1 00
  vcan0  7E8   [7]  06 41 01 00 07 E1 00
